date Wed Sep 02 15:53:01.653 2026
base hex  timestamps absolute
internal events logged
Begin Triggerblock Wed Sep 02 15:52:15.972 2026
 0.000000 Start of measurement
 0.000000 1  101             Rx   d 3 01 ED 23
 0.060988 1  200             Rx   d 2 00 D2
 0.167069 1  494             Rx   d 5 94 EF 23 2D 4C
 0.407104 1  101             Rx   d 4 01 F0 23 9D
 0.652148 1  221             Rx   d 8 21 F1 23 32 44 57 1F DD
 0.758178 1  101             Rx   d 8 01 F2 23 4D 47 D9 F4 5A
 0.815175 1  101             Rx   d 8 01 F3 23 26 39 B9 A7 47
 0.960096 1  180             Rx   d 5 80 F4 23 2A 39
 1.173019 1  221             Rx   d 3 21 F5 23
 1.361971 1  100             Rx   d 1 00
 1.578083 1  180             Rx   d 5 80 F7 23 50 61
 1.829002 1  101             Rx   d 2 01 35
 1.979100 1  494             Rx   d 3 94 F9 23
 2.029042 1  180             Rx   d 3 80 FA 23
 2.242074 1  200             Rx   d 3 00 FB 23
 2.272989 1  3D2             Rx   d 1 D2
 2.406132 1  484             Rx   d 6 84 FD 23 44 37 B1
 2.456027 1  100             Rx   d 2 00 33
 2.514163 1  484             Rx   d 7 84 FF 23 1F 62 E4 12
 2.652171 1  180             Rx   d 7 80 00 24 3F 32 D9 05
 2.838029 1  100             Rx   d 2 00 31
 2.931159 1  221             Rx   d 7 21 02 24 1E 62 23 33
 3.067195 1  100             Rx   d 8 00 03 24 26 25 58 4D DE
 3.281059 1  494             Rx   d 3 94 04 24
 3.324161 1  180             Rx   d 6 80 05 24 2B 56 DF
 3.569196 1  200             Rx   d 8 00 06 24 56 59 10 5B 76
 3.777067 1  3D2             Rx   d 3 D2 07 24
 3.812103 1  3D2             Rx   d 4 D2 08 24 1E
 4.037123 1  180             Rx   d 5 80 09 24 1E 4D
 4.270206 1  494             Rx   d 8 94 0A 24 49 41 88 C2 B7
 4.428182 1  100             Rx   d 7 00 0B 24 37 3B AB A2
 4.513149 1  101             Rx   d 6 01 0C 24 37 3A BF
 4.625163 1  3D2             Rx   d 6 D2 0D 24 3F 3C E8
 4.750218 1  221             Rx   d 8 21 0E 24 37 5B AC 1F 96
 4.842223 1  101             Rx   d 8 01 0F 24 36 2B BC F5 52
 4.904173 1  484             Rx   d 6 84 10 24 41 56 1D
 5.137241 1  3D2             Rx   d 8 D2 11 24 24 4E 43 F5 D8
 5.216171 1  100             Rx   d 6 00 12 24 35 2D A7
 5.343203 1  3D2             Rx   d 7 D2 13 24 18 59 22 ED
 5.451040 1  100             Rx   d 1 00
 5.698226 1  494             Rx   d 8 94 15 24 1B 39 0D 9F D2
 5.780066 1  494             Rx   d 2 94 D3
 6.020228 1  200             Rx   d 8 00 17 24 35 22 15 31 4D
 6.181096 1  101             Rx   d 3 01 18 24
 6.281116 1  221             Rx   d 3 21 19 24
 6.316169 1  100             Rx   d 3 00 1A 24
 6.378090 1  221             Rx   d 2 21 3E
 6.605151 1  3D2             Rx   d 5 D2 1C 24 31 30
 6.802212 1  3D2             Rx   d 7 D2 1D 24 58 46 58 9E
 6.833140 1  494             Rx   d 4 94 1E 24 AB
 6.940220 1  221             Rx   d 7 21 1F 24 52 47 F3 BA
 7.040244 1  221             Rx   d 8 21 20 24 2D 49 B6 6D 35
 7.258246 1  3D2             Rx   d 8 D2 21 24 2D 62 05 4C 5A
 7.457170 1  100             Rx   d 5 00 22 24 24 22
 7.701178 1  200             Rx   d 5 00 23 24 57 1F
 7.793134 1  484             Rx   d 3 84 24 24
 7.913214 1  221             Rx   d 6 21 25 24 56 25 FB
 7.999073 1  221             Rx   d 1 21
 8.214077 1  180             Rx   d 1 80
 8.430129 1  101             Rx   d 3 01 28 24
 8.622241 1  200             Rx   d 7 00 29 24 34 32 A7 22
 8.808246 1  3D2             Rx   d 7 D2 2A 24 1E 35 E6 96
 8.925252 1  484             Rx   d 7 84 2B 24 43 48 B9 57
 8.964088 1  180             Rx   d 1 80
 9.127123 1  3D2             Rx   d 2 D2 5C
 9.163251 1  180             Rx   d 6 80 2E 24 59 2B 70
 9.268087 1  494             Rx   d 1 94
 9.513231 1  180             Rx   d 6 80 30 24 2A 21 73
 9.736087 1  484             Rx   d 1 84
 9.848292 1  200             Rx   d 8 00 32 24 3D 4C 51 90 B1
 9.950202 1  200             Rx   d 4 00 33 24 C6
 9.989153 1  100             Rx   d 3 00 34 24
 10.013282 1  484             Rx   d 8 84 35 24 43 2C E5 C2 6D
 10.072307 1  494             Rx   d 8 94 36 24 42 5C C9 3E F8
 10.280098 1  494             Rx   d 1 94
 10.451273 1  180             Rx   d 7 80 38 24 18 4C 85 77
 10.692271 1  3D2             Rx   d 7 D2 39 24 20 42 70 4C
 10.788344 1  100             Rx   d 8 00 3A 24 4E 33 15 C1 95
 10.956195 1  3D2             Rx   d 4 D2 3B 24 A1
 11.096108 1  484             Rx   d 1 84
 11.280140 1  100             Rx   d 2 00 F8
 11.460171 1  221             Rx   d 3 21 3E 24
 11.542245 1  200             Rx   d 5 00 3F 24 3E 47
 11.575207 1  100             Rx   d 4 00 40 24 90
 11.785299 1  180             Rx   d 7 80 41 24 33 2A C0 51
 11.877279 1  3D2             Rx   d 6 D2 42 24 56 30 5E
 11.994263 1  101             Rx   d 6 01 43 24 47 32 C5
 12.121235 1  494             Rx   d 5 94 44 24 42 2B
 12.191187 1  484             Rx   d 2 84 8B
 12.246203 1  100             Rx   d 3 00 46 24
 12.278224 1  180             Rx   d 4 80 47 24 F8
 12.512283 1  3D2             Rx   d 6 D2 48 24 23 38 DE
 12.727245 1  180             Rx   d 5 80 49 24 3C 3B
 12.857213 1  494             Rx   d 3 94 4A 24
 12.973198 1  200             Rx   d 2 00 0E
 13.109134 1  494             Rx   d 1 94
 13.165161 1  100             Rx   d 1 00
 13.218323 1  100             Rx   d 6 00 4E 24 2A 61 B6
 13.368302 1  200             Rx   d 6 00 4F 24 28 63 0F
 13.561337 1  484             Rx   d 7 84 50 24 3E 4C 0C C6
 13.731351 1  494             Rx   d 7 94 51 24 37 44 AD B5
 13.871289 1  3D2             Rx   d 6 D2 52 24 27 40 53
 14.020291 1  3D2             Rx   d 6 D2 53 24 23 31 A9
 14.041301 1  101             Rx   d 6 01 54 24 46 37 E5
 14.226387 1  100             Rx   d 8 00 55 24 51 4B A8 00 29
 14.361170 1  100             Rx   d 1 00
 14.420304 1  3D2             Rx   d 4 D2 57 24 50
 14.642194 1  101             Rx   d 2 01 64
 14.680325 1  180             Rx   d 6 80 59 24 2C 23 6F
 14.836373 1  101             Rx   d 8 01 5A 24 3F 5E 28 E5 11
 15.002312 1  101             Rx   d 6 01 5B 24 47 61 92
 15.243286 1  101             Rx   d 5 01 5C 24 4E 29
 15.368215 1  101             Rx   d 2 01 B1
 15.458190 1  101             Rx   d 1 01
 15.681376 1  484             Rx   d 7 84 5F 24 41 4E 75 19
 15.837198 1  494             Rx   d 1 94
 15.940362 1  200             Rx   d 7 00 61 24 41 21 33 06
 16.126290 1  494             Rx   d 5 94 62 24 32 2A
 16.195343 1  100             Rx   d 6 00 63 24 22 5F D8
 16.371244 1  200             Rx   d 3 00 64 24
 16.621361 1  100             Rx   d 7 00 65 24 1B 55 4D 3E
 16.827251 1  494             Rx   d 3 94 66 24
 17.018249 1  484             Rx   d 3 84 67 24
 17.075373 1  484             Rx   d 7 84 68 24 23 59 8B CD
 17.113373 1  180             Rx   d 6 80 69 24 37 48 E7
 17.231377 1  484             Rx   d 7 84 6A 24 3D 23 AF 5F
 17.332403 1  100             Rx   d 8 00 6B 24 36 3E C0 B0 D1
 17.560255 1  494             Rx   d 3 94 6C 24
 17.662268 1  484             Rx   d 2 84 B5
 17.825319 1  180             Rx   d 5 80 6E 24 42 2B
 17.915340 1  221             Rx   d 6 21 6F 24 4C 3D 0C
 17.943423 1  100             Rx   d 8 00 70 24 3B 57 9F F8 F3
 18.144323 1  180             Rx   d 5 80 71 24 44 57
 18.183413 1  484             Rx   d 8 84 72 24 16 4C A2 8E 53
 18.318398 1  3D2             Rx   d 7 D2 73 24 4E 21 A0 7D
 18.493398 1  101             Rx   d 7 01 74 24 44 5C 08 81
 18.529451 1  100             Rx   d 6 00 75 24 4A 55 66
 18.690477 1  101             Rx   d 5 01 76 24 53 4A
 18.898417 1  3D2             Rx   d 6 D2 77 24 35 23 6E
 19.041334 1  494             Rx   d 5 94 78 24 3C 21
 19.180371 1  200             Rx   d 6 00 79 24 42 42 6A
 19.424393 1  484             Rx   d 7 84 7A 24 25 1E 45 BC
 19.603321 1  100             Rx   d 4 00 7B 24 50
 19.782425 1  484             Rx   d 7 84 7C 24 17 22 2E 5F
 19.915410 1  221             Rx   d 7 21 7D 24 1E 1F 76 DA
 19.944363 1  494             Rx   d 5 94 7E 24 1D 44
 20.114421 1  221             Rx   d 6 21 7F 24 21 35 68
 20.291439 1  494             Rx   d 8 94 80 24 50 36 E0 47 D0
 20.464384 1  494             Rx   d 6 94 81 24 58 3F 1A
 20.588336 1  494             Rx   d 4 94 82 24 F6
 20.796369 1  484             Rx   d 5 84 83 24 3C 5F
 20.830389 1  3D2             Rx   d 5 D2 84 24 3F 36
 20.951382 1  484             Rx   d 5 84 85 24 51 50
 21.077414 1  484             Rx   d 6 84 86 24 52 1F 43
 21.184276 1  200             Rx   d 1 00
 21.363471 1  3D2             Rx   d 8 D2 88 24 17 2A A4 A9 E6
 21.440284 1  484             Rx   d 1 84
 21.504291 1  180             Rx   d 2 80 31
 21.731429 1  494             Rx   d 7 94 8B 24 4F 62 7E 96
 21.924419 1  200             Rx   d 5 00 8C 24 1D 33
 22.014311 1  101             Rx   d 1 01
 22.262310 1  484             Rx   d 2 84 7F
 22.289393 1  494             Rx   d 5 94 8F 24 41 5B
 22.345308 1  494             Rx   d 2 94 69
 22.486369 1  3D2             Rx   d 4 D2 91 24 D2
 22.538403 1  100             Rx   d 4 00 92 24 69
 22.622445 1  100             Rx   d 5 00 93 24 3C 2C
 22.818467 1  221             Rx   d 7 21 94 24 1A 5B DA C1
 23.029518 1  3D2             Rx   d 8 D2 95 24 50 57 7B 75 CA
 23.170420 1  3D2             Rx   d 6 D2 96 24 3D 43 5D
 23.338399 1  200             Rx   d 5 00 97 24 24 4D
 23.482409 1  180             Rx   d 5 80 98 24 1B 5E
 23.647426 1  484             Rx   d 6 84 99 24 2C 33 E9
 23.698439 1  200             Rx   d 6 00 9A 24 22 57 64
 23.748315 1  494             Rx   d 1 94
 23.923336 1  3D2             Rx   d 2 D2 8D
 24.162499 1  180             Rx   d 8 80 9D 24 34 29 57 AE 97
 24.275357 1  180             Rx   d 3 80 9E 24
 24.421328 1  484             Rx   d 2 84 ED
 24.524368 1  494             Rx   d 3 94 A0 24
 24.719361 1  221             Rx   d 3 21 A1 24
 24.856506 1  101             Rx   d 8 01 A2 24 24 2F EB 85 36
 25.104312 1  484             Rx   d 1 84
 25.305345 1  494             Rx   d 2 94 9D
 25.556395 1  494             Rx   d 3 94 A5 24
 25.702481 1  221             Rx   d 7 21 A6 24 26 46 1A 6F
 25.918379 1  484             Rx   d 3 84 A7 24
 26.126467 1  101             Rx   d 6 01 A8 24 17 43 3C
 26.290472 1  200             Rx   d 6 00 A9 24 51 4E 77
 26.523453 1  180             Rx   d 5 80 AA 24 1C 47
 26.589483 1  221             Rx   d 6 21 AB 24 30 21 E8
 26.611523 1  3D2             Rx   d 8 D2 AC 24 53 5B BC 56 63
 26.681352 1  3D2             Rx   d 1 D2
 26.809488 1  494             Rx   d 6 94 AE 24 3E 4E 61
 26.951405 1  494             Rx   d 3 94 AF 24
 27.060532 1  180             Rx   d 7 80 B0 24 49 1F B5 94
 27.200377 1  484             Rx   d 2 84 CF
 27.384348 1  221             Rx   d 1 21
 27.454494 1  3D2             Rx   d 6 D2 B3 24 3B 42 96
 27.641389 1  200             Rx   d 2 00 FB
 27.682544 1  3D2             Rx   d 8 D2 B5 24 25 49 03 FF A3
 27.907510 1  180             Rx   d 5 80 B6 24 18 31
 28.091563 1  180             Rx   d 8 80 B7 24 59 22 71 74 D4
 28.172555 1  180             Rx   d 2 80 FC
 28.319396 1  3D2             Rx   d 2 D2 50
 28.438457 1  100             Rx   d 4 00 BA 24 46
 28.659562 1  200             Rx   d 8 00 BB 24 51 2B 90 57 6D
 28.683460 1  494             Rx   d 4 94 BC 24 D7
 28.770392 1  494             Rx   d 1 94
 28.860370 1  101             Rx   d 1 01
 29.051575 1  221             Rx   d 7 21 BF 24 20 5E A6 CC
 29.190543 1  494             Rx   d 7 94 C0 24 39 42 B7 3D
 29.381377 1  101             Rx   d 1 01
 29.533474 1  100             Rx   d 3 00 C2 24
 29.589416 1  200             Rx   d 2 00 42
 29.752415 1  494             Rx   d 2 94 31
 29.857486 1  200             Rx   d 4 00 C5 24 66
 29.953406 1  484             Rx   d 2 84 F1
 30.120568 1  494             Rx   d 6 94 C7 24 20 45 4E
 30.328710 1  180             Rx   d 7 80 C8 24 47 4B 17 12
 30.523434 1  3D2             Rx   d 1 D2
End TriggerBlock
