date Wed Sep 02 15:45:28.69 2026
base hex  timestamps absolute
internal events logged
Begin Triggerblock Wed Sep 02 15:44:34.544 2026
 0.000000 Start of measurement
 0.000000 1  484             Rx   d 5 84 CB 04 53 20
 0.000036 1  221             Rx   d 3 21 CC 04
 0.000058 1  70B             Rx   d 4 3D A5 EF 92
 0.000079 1  484             Rx   d 5 84 CB 04 53 20
 0.130107 1  121             Rx   d 3 71 CC 04
 0.212102 1  483             Rx   d 4 3D A5 EF 92
 0.212170 1  121             Rx   d 3 71 CC 04
 0.212193 1  484             Rx   d 5 84 CB 04 53 20
 0.212212 1  483             Rx   d 4 3D A5 EF 92
 0.212228 1  ErrorFrame
 0.269100 1  4C4280Fx        Rx   d 3 71 CC 04
 0.269142 1  484             Rx   d 5 84 CB 04 53 20
 0.269164 1  483             Rx   d 4 3D A5 EF 92
 0.505209 1  90B70Fx         Rx   d 3 71 CC 04
 0.505264 1  483             Rx   d 4 3D A5 EF 92
 0.505280 1  ErrorFrame
 0.505302 1  484             Rx   d 5 84 CB 04 53 20
 0.707066 1  4A4170Fx        Rx   d 3 71 CC 04
 0.776228 1  484B650x        Rx   d 4 84 CB 04 53
 0.971065 1  4A4170Fx        Rx   d 3 71 CC 04
 0.971104 1  484B650x        Rx   d 4 84 CB 04 53
 0.971128 1  483             Rx   d 4 3D A5 EF 92
 0.971150 1  4A4170Fx        Rx   d 3 71 CC 04
 1.096181 1  714             Rx   r 8 
 1.096219 1  483             Rx   d 4 3D A5 EF 92
 1.338175 1  48C             Rx   r 8 
 1.393069 1  714             Rx   r 8 
 1.393110 1  48C             Rx   r 8 
 1.393125 1  ErrorFrame
 1.393147 1  483             Rx   d 4 3D A5 EF 92
 1.393163 1  714             Rx   r 8 
 1.456020 1  494             Rx   r 8 
 1.481179 1  494             Rx   r 8 
 1.611297 1  1C314447x       Rx   r 8 
 1.792227 1  70B             Rx   d 8 D6 A5 EF 92 41 CC 0A EE
 1.939204 1  1033B6x         Rx   r 8 
 2.049191 1  CAFB78Bx        Rx   d 8 D6 A5 EF 92 41 CC 0A EE
 2.146224 1  70B             Rx   d 8 DF CC 04 3D 4F 1E 9D 6D
 2.384048 1  CAFB78Bx        Rx   d 8 D6 A5 EF 92 41 CC 0A EE
 2.384089 1  70B             Rx   d 8 DF CC 04 3D 4F 1E 9D 6D
 2.384112 1  714             Rx   r 8 
 2.384131 1  ErrorFrame
 2.589183 1  489             Rx   d 8 E7 3E EF 92 41 CC 0A EE
 2.671288 1  92B4D9x         Rx   r 8 
 2.743056 1  489             Rx   d 8 E7 3E EF 92 41 CC 0A EE
 2.743096 1  92B4D9x         Rx   r 8 
 2.743119 1  70B             Rx   d 8 DF CC 04 3D 4F 1E 9D 6D
 2.743141 1  489             Rx   d 8 E7 3E EF 92 41 CC 0A EE
 2.743154 1  ErrorFrame
 2.916194 1  531700x         Rx   r 8 
 3.086276 1  520477x         Rx   d 8 37 CC 04 3D 4F 1E 9D 6D
 3.275225 1  1C31AD25x       Rx   d 3 84 CB 04
 3.305117 1  12320477x       Rx   d 8 37 CC 04 3D 4F 1E 9D 6D
 3.305159 1  1C31AD25x       Rx   d 3 84 CB 04
 3.305188 1  489             Rx   d 8 E7 3E EF 92 41 CC 0A EE
 3.305205 1  12320477x       Rx   d 8 37 CC 04 3D 4F 1E 9D 6D
 3.339147 1  42C225x         Rx   d 3 84 CB 04
 3.494124 1  481             Rx   d 8 E7 3E EF 92 41 CC 0A EE
 3.494165 1  42C225x         Rx   d 3 84 CB 04
 3.494187 1  12320477x       Rx   d 8 37 CC 04 3D 4F 1E 9D 6D
 3.494209 1  481             Rx   d 8 E7 3E EF 92 41 CC 0A EE
 3.549056 1  42C225x         Rx   d 3 84 CB 04
 3.549100 1  12320477x       Rx   d 8 37 CC 04 3D 4F 1E 9D 6D
 3.702247 1  488             Rx   d 4 C1 5D 6F 92
 3.829141 1  C8CB625x        Rx   d 3 84 CB 04
 3.935056 1  488             Rx   d 4 C1 5D 6F 92
 3.935098 1  C8CB625x        Rx   d 3 84 CB 04
 3.935122 1  12320477x       Rx   d 8 37 CC 04 3D 4F 1E 9D 6D
 4.100122 1  480             Rx   d 4 C1 5D 6F 92
 4.100162 1  12320477x       Rx   d 8 37 CC 04 3D 4F 1E 9D 6D
 4.100184 1  C8CB625x        Rx   d 3 84 CB 04
 4.100201 1  480             Rx   d 4 C1 5D 6F 92
 4.100214 1  ErrorFrame
 4.100235 1  12320477x       Rx   d 8 37 CC 04 3D 4F 1E 9D 6D
 4.193132 1  120CB625x       Rx   d 3 84 CB 04
 4.193172 1  12320477x       Rx   d 8 37 CC 04 3D 4F 1E 9D 6D
 4.193194 1  480             Rx   d 4 C1 5D 6F 92
 4.193211 1  120CB625x       Rx   d 3 84 CB 04
 4.193224 1  ErrorFrame
 4.369119 1  18              Rx   r 8 
 4.477136 1  480             Rx   d 4 C1 5D 6F 92
 4.477176 1  18              Rx   r 8 
 4.477198 1  120CB625x       Rx   d 3 84 CB 04
 4.477215 1  480             Rx   d 4 C1 5D 6F 92
 4.477228 1  ErrorFrame
 4.515049 1  18              Rx   r 8 
 4.515088 1  120CB625x       Rx   d 3 84 CB 04
 4.515110 1  480             Rx   d 4 C1 5D 6F 92
 4.515132 1  18              Rx   r 8 
 4.717096 1  120CB625x       Rx   d 3 84 CB 04
 4.717167 1  480             Rx   d 4 C1 5D 6F 92
 4.717187 1  ErrorFrame
 4.717210 1  18              Rx   r 8 
 4.717226 1  120CB625x       Rx   d 3 84 CB 04
 4.855193 1  70B             Rx   d 1 BF
 5.052098 1  490             Rx   r 8 
 5.052139 1  70B             Rx   d 1 BF
 5.052161 1  120CB625x       Rx   d 3 84 CB 04
 5.052180 1  ErrorFrame
 5.155108 1  18              Rx   r 8 
 5.380067 1  124CB625x       Rx   d 3 84 CB 04
 5.622056 1  18              Rx   r 8 
 5.622100 1  124CB625x       Rx   d 3 84 CB 04
 5.622122 1  70B             Rx   d 1 BF
 5.622144 1  18              Rx   r 8 
 5.816250 1  323             Rx   d 2 5C 64
 5.816290 1  70B             Rx   d 1 BF
 5.920156 1  488             Rx   d 0 
 5.920196 1  323             Rx   d 2 5C 64
 5.920219 1  70B             Rx   d 1 BF
 5.920241 1  ErrorFrame
 6.132195 1  32B             Rx   d 1 A4
 6.164155 1  323             Rx   d 0 
 6.236256 1  121             Rx   d 8 49 CC 04 3D 4F 1E 9D 6D
 6.236309 1  323             Rx   d 0 
 6.236327 1  ErrorFrame
 6.236352 1  323             Rx   d 2 5C 64
 6.297220 1  131             Rx   d 8 99 25 04 3D 4F 1E 9D 6D
 6.383150 1  493             Rx   d 2 5C 64
 6.383191 1  131             Rx   d 8 99 25 04 3D 4F 1E 9D 6D
 6.383214 1  323             Rx   d 0 
 6.383236 1  493             Rx   d 2 5C 64
 6.422254 1  333             Rx   d 8 9E 25 04 3D 4F 1E 9D 6D
 6.422336 1  323             Rx   d 0 
 6.599224 1  139             Rx   d 0 
 6.671253 1  121             Rx   d 5 AA 25 04 3D 4F
 6.671298 1  139             Rx   d 0 
 6.737237 1  139             Rx   d 1 B6
 6.894083 1  121             Rx   d 5 AA 25 04 3D 4F
 6.894136 1  139             Rx   d 1 B6
 6.894159 1  139             Rx   d 0 
 6.894179 1  ErrorFrame
 7.106333 1  1C511A4Cx       Rx   d 8 BB 25 04 3D 4F 1E 9D 6D
 7.161283 1  131             Rx   d 8 8C 36 69 53 20 7B 22 EC
 7.254323 1  1C51882Fx       Rx   d 8 F2 25 04 3D 4F 1E 9D 6D
 7.348339 1  323             Rx   d 8 5D CB 38 5D 20 7B 22 EC
 7.474094 1  1C11882Fx       Rx   d 8 F2 25 04 3D 4F 1E 9D 6D
 7.474156 1  323             Rx   d 8 5D CB 38 5D 20 7B 22 EC
 7.595207 1  48C             Rx   r 8 
 7.595248 1  1C11882Fx       Rx   d 8 F2 25 04 3D 4F 1E 9D 6D
 7.778157 1  32B             Rx   d 8 5D CB 38 5D 20 7B 22 EC
 7.778200 1  48C             Rx   r 8 
 8.023155 1  32B             Rx   d 8 DF 25 04 3D 4F 1E 9D 6D
 8.098221 1  18              Rx   r 8 
 8.281311 1  33B             Rx   d 8 8A 25 04 3D 4F 1E 9D 6D
 8.281371 1  18              Rx   r 8 
 8.361226 1  131             Rx   d 8 9B 5D 6F 92 41 CC 0A EE
 8.436254 1  33B             Rx   d 8 B4 B5 04 3D 4F 1E 9D 6D
 8.543099 1  131             Rx   d 8 9B 5D 6F 92 41 CC 0A EE
 8.543139 1  33B             Rx   d 8 B4 B5 04 3D 4F 1E 9D 6D
 8.543162 1  18              Rx   r 8 
 8.647069 1  131             Rx   d 8 9B 5D 6F 92 41 CC 0A EE
 8.647107 1  18              Rx   r 8 
 8.647129 1  33B             Rx   d 8 B4 B5 04 3D 4F 1E 9D 6D
 8.647148 1  ErrorFrame
 8.756094 1  131             Rx   d 8 9B 5D 6F 92 41 CC 0A EE
 8.756132 1  33B             Rx   d 8 B4 B5 04 3D 4F 1E 9D 6D
 8.756154 1  18              Rx   r 8 
 8.756173 1  ErrorFrame
 8.855112 1  131             Rx   d 8 9B 5D 6F 92 41 CC 0A EE
 8.855181 1  18              Rx   r 8 
 8.878311 1  70F             Rx   d 4 A0 8F 04 3D
 9.084222 1  491             Rx   d 8 9B 5D BF 92 41 CC 0A EE
 9.084295 1  70F             Rx   d 4 A0 8F 04 3D
 9.218180 1  32B             Rx   d 8 DF 3F 38 5D 20 7B 22 EC
 9.350112 1  491             Rx   d 8 9B 5D BF 92 41 CC 0A EE
 9.350153 1  32B             Rx   d 8 DF 3F 38 5D 20 7B 22 EC
 9.350175 1  70F             Rx   d 4 A0 8F 04 3D
 9.577228 1  18              Rx   r 2 
 9.781202 1  10              Rx   r 8 
 9.854264 1  48C             Rx   r 8 
 9.974144 1  10              Rx   r 8 
 9.974185 1  48C             Rx   r 8 
 9.974208 1  32B             Rx   d 8 DF 3F 38 5D 20 7B 22 EC
 9.974224 1  10              Rx   r 8 
 9.974237 1  ErrorFrame
 10.142281 1  5034A4x         Rx   r 8 
 10.260140 1  32B             Rx   d 8 DF 3F 38 5D 20 7B 22 EC
 10.260184 1  5034A4x         Rx   r 8 
 10.260207 1  10              Rx   r 8 
 10.260224 1  32B             Rx   d 8 DF 3F 38 5D 20 7B 22 EC
 10.260237 1  ErrorFrame
 10.312151 1  5034A4x         Rx   r 8 
 10.312199 1  10              Rx   r 8 
 10.312221 1  32B             Rx   d 8 DF 3F 38 5D 20 7B 22 EC
 10.344393 1  499             Rx   d 8 10 18 66 49 41 CC 0A EE
 10.492318 1  52739Ax         Rx   d 8 DF 3F 38 5D 20 7B 22 EC
 10.727347 1  52147Bx         Rx   d 8 97 18 66 49 41 CC 0A EE
 10.891175 1  52739Ax         Rx   d 8 DF 3F 38 5D 20 7B 22 EC
 10.891231 1  52147Bx         Rx   d 8 97 18 66 49 41 CC 0A EE
 10.891254 1  10              Rx   r 8 
 10.891278 1  52739Ax         Rx   d 8 DF 3F 38 5D 20 7B 22 EC
 11.051328 1  70B             Rx   d 8 CD F6 51 49 41 CC 0A EE
 11.124312 1  5230B2x         Rx   r 8 
 11.124354 1  70B             Rx   d 8 CD F6 51 49 41 CC 0A EE
 11.211209 1  1252739Ax       Rx   d 8 DF 3F 38 5D 20 7B 22 EC
 11.211250 1  5230B2x         Rx   r 8 
 11.211273 1  70B             Rx   d 8 CD F6 51 49 41 CC 0A EE
 11.211290 1  1252739Ax       Rx   d 8 DF 3F 38 5D 20 7B 22 EC
 11.211303 1  ErrorFrame
 11.242116 1  121230B2x       Rx   r 8 
 11.242158 1  70B             Rx   d 8 CD F6 51 49 41 CC 0A EE
 11.343191 1  4A4179Ax        Rx   d 8 DF 3F 38 5D 20 7B 22 EC
 11.473140 1  121230B2x       Rx   r 8 
 11.473197 1  4A4179Ax        Rx   d 8 DF 3F 38 5D 20 7B 22 EC
 11.572274 1  4A489F7x        Rx   d 8 CD F6 51 49 41 CC 0A EE
 11.761341 1  70F             Rx   d 0 
 11.791242 1  10              Rx   r 8 
 11.900397 1  1C5014ABx       Rx   d 6 C9 8F 04 3D 4F 1E
 11.948241 1  1C5089F7x       Rx   r 8 
 11.948289 1  1C5014ABx       Rx   d 6 C9 8F 04 3D 4F 1E
 11.948313 1  4A4179Ax        Rx   d 8 DF 3F 38 5D 20 7B 22 EC
 11.948329 1  1C5089F7x       Rx   r 8 
 11.948343 1  ErrorFrame
 12.142358 1  4E53204x        Rx   d 5 E7 8F 04 3D 4F
 12.380228 1  323             Rx   d 8 57 3F 38 5D 20 7B 22 EC
 12.510298 1  14              Rx   r 3 
 12.674215 1  32B             Rx   d 8 DF 3F 38 5D 20 7B 22 EC
 12.723274 1  70B             Rx   d 0 
 12.787194 1  18              Rx   r 8 
 12.809152 1  70B             Rx   d 0 
 12.809194 1  18              Rx   r 8 
 12.809216 1  1C5089F7x       Rx   r 8 
 12.809237 1  70B             Rx   d 0 
 12.853141 1  18              Rx   r 8 
 12.853177 1  1C5089F7x       Rx   r 8 
 12.853200 1  70B             Rx   d 0 
 13.002348 1  9133BAx         Rx   r 8 
 13.002388 1  70B             Rx   d 0 
 13.088219 1  1C5089F7x       Rx   r 8 
 13.088260 1  9133BAx         Rx   r 8 
 13.088284 1  70B             Rx   d 0 
 13.088303 1  ErrorFrame
 13.088356 1  1C5089F7x       Rx   r 8 
 13.178363 1  70B             Rx   d 8 26 0A A0 3D 4F 1E 9D 6D
 13.367272 1  4A6B74Fx        Rx   r 8 
 13.589255 1  484             Rx   r 4 
 13.733163 1  4A6B74Fx        Rx   r 8 
 13.733207 1  484             Rx   r 4 
 13.733229 1  9133BAx         Rx   r 8 
 13.733249 1  ErrorFrame
 13.924275 1  CAF2C8Bx        Rx   r 8 
 14.048395 1  CEFB5A9x        Rx   d 8 EF 3F 38 5D 20 7B 22 EC
 14.152225 1  CAF2C8Bx        Rx   r 8 
 14.152271 1  CEFB5A9x        Rx   d 8 EF 3F 38 5D 20 7B 22 EC
 14.152294 1  484             Rx   r 4 
 14.152312 1  CAF2C8Bx        Rx   r 8 
 14.152325 1  ErrorFrame
 14.152347 1  CEFB5A9x        Rx   d 8 EF 3F 38 5D 20 7B 22 EC
 14.223387 1  70B             Rx   d 8 D8 87 A0 3D 4F 1E 9D 6D
 14.301312 1  4               Rx   r 3 
 14.435412 1  48C             Rx   r 4 
 14.590217 1  4               Rx   r 3 
 14.590265 1  48C             Rx   r 4 
 14.590288 1  CAF2C8Bx        Rx   r 8 
 14.590304 1  4               Rx   r 3 
 14.590319 1  ErrorFrame
 14.646296 1  4A6B304x        Rx   r 4 
 14.705229 1  CAF2C3Fx        Rx   r 8 
 14.705307 1  4A6B304x        Rx   r 4 
 14.705324 1  ErrorFrame
 14.705347 1  4               Rx   r 3 
 14.705364 1  CAF2C3Fx        Rx   r 8 
 14.820354 1  1C32844Fx       Rx   d 8 D8 87 A0 3D 4F 1E 9D 6D
 14.909329 1  14              Rx   r 8 
 14.909372 1  1C32844Fx       Rx   d 8 D8 87 A0 3D 4F 1E 9D 6D
 15.128316 1  1C1B8E83x       Rx   r 8 
 15.359231 1  1C18B5A9x       Rx   r 8 
 15.359274 1  1C1B8E83x       Rx   r 8 
 15.528185 1  1C32844Fx       Rx   d 8 D8 87 A0 3D 4F 1E 9D 6D
 15.528248 1  1C18B5A9x       Rx   r 8 
 15.528264 1  ErrorFrame
 15.528286 1  1C1B8E83x       Rx   r 8 
 15.556289 1  1212844Fx       Rx   d 8 D8 87 A0 3D 4F 1E 9D 6D
 15.556352 1  1C1B8E83x       Rx   r 8 
 15.556367 1  ErrorFrame
 15.556389 1  1C18B5A9x       Rx   r 8 
 15.556407 1  1212844Fx       Rx   d 8 D8 87 A0 3D 4F 1E 9D 6D
 15.722316 1  CCCB683x        Rx   r 8 
 15.722358 1  1C18B5BFx       Rx   r 8 
 15.936241 1  1212844Fx       Rx   d 8 D8 87 A0 3D 4F 1E 9D 6D
 15.936282 1  CCCB683x        Rx   r 8 
 15.936304 1  1C18B5BFx       Rx   r 8 
 15.936322 1  1212844Fx       Rx   d 8 D8 87 A0 3D 4F 1E 9D 6D
 15.936336 1  ErrorFrame
 15.936357 1  CCCB683x        Rx   r 8 
 16.058182 1  1C18B5BFx       Rx   r 8 
 16.058222 1  CCCB683x        Rx   r 8 
 16.058244 1  1212844Fx       Rx   d 8 D8 87 A0 3D 4F 1E 9D 6D
 16.108226 1  1258B5BFx       Rx   r 8 
 16.108261 1  1212844Fx       Rx   d 8 D8 87 A0 3D 4F 1E 9D 6D
 16.108286 1  CCCB683x        Rx   r 8 
 16.108302 1  1258B5BFx       Rx   r 8 
 16.227325 1  489             Rx   d 8 26 79 A0 3D 4F 1E 9D 6D
 16.304353 1  12707Ex         Rx   r 8 
 16.449262 1  489             Rx   d 8 26 79 A0 3D 4F 1E 9D 6D
 16.449307 1  12707Ex         Rx   r 8 
 16.449330 1  1258B5BFx       Rx   r 8 
 16.449346 1  489             Rx   d 8 26 79 A0 3D 4F 1E 9D 6D
 16.449360 1  ErrorFrame
 16.449382 1  12707Ex         Rx   r 8 
 16.549418 1  4E432CAx        Rx   d 8 AF 3F 38 5D 20 7B 22 EC
 16.615285 1  4C4B07Ex        Rx   r 8 
 16.639290 1  4E432CAx        Rx   d 8 AF 3F 38 5D 20 7B 22 EC
 16.639339 1  4C4B07Ex        Rx   r 8 
 16.639356 1  ErrorFrame
 16.639379 1  489             Rx   d 8 26 79 A0 3D 4F 1E 9D 6D
 16.639395 1  4E432CAx        Rx   d 8 AF 3F 38 5D 20 7B 22 EC
 16.766347 1  4A5B10Fx        Rx   r 8 
 16.940210 1  701             Rx   d 8 26 79 A0 3D 4F 1E 9D 6D
 17.049384 1  CEDB38Dx        Rx   d 8 CD F6 51 49 41 CC 0A EE
 17.144287 1  323             Rx   d 3 9F 79 A0
 17.369202 1  CEDB38Dx        Rx   d 8 CD F6 51 49 41 CC 0A EE
 17.369244 1  323             Rx   d 3 9F 79 A0
 17.369268 1  4E432CAx        Rx   d 8 AF 3F 38 5D 20 7B 22 EC
 17.369287 1  ErrorFrame
 17.436240 1  484B38Dx        Rx   d 8 CD F6 51 49 41 CC 0A EE
 17.537491 1  C8EB549x        Rx   r 8 
 17.757361 1  48C             Rx   r 8 
 17.757400 1  C8EB549x        Rx   r 8 
 17.922228 1  323             Rx   d 3 9F 79 A0
 17.922269 1  48C             Rx   r 8 
 17.922292 1  C8EB549x        Rx   r 8 
 17.922308 1  323             Rx   d 3 9F 79 A0
 17.922322 1  ErrorFrame
 17.948279 1  10              Rx   r 8 
 18.199249 1  C8EB549x        Rx   r 8 
 18.199287 1  10              Rx   r 8 
 18.199331 1  323             Rx   d 3 9F 79 A0
 18.332470 1  1C5325C9x       Rx   d 7 B7 9F 38 5D 20 7B 22
 18.502456 1  930813x         Rx   r 1 
 18.541367 1  488             Rx   d 0 
 18.567229 1  930813x         Rx   r 1 
 18.567262 1  488             Rx   d 0 
 18.567284 1  10              Rx   r 8 
 18.567310 1  930813x         Rx   r 1 
 18.808208 1  10              Rx   r 8 
 18.808247 1  930813x         Rx   r 1 
 18.832313 1  40E0C9x         Rx   d 0 
 19.015427 1  70F             Rx   d 8 2E E2 CF 49 41 CC 0A EE
 19.187328 1  51B0C9x         Rx   d 0 
 19.187359 1  70F             Rx   d 8 2E E2 CF 49 41 CC 0A EE
 19.187381 1  930813x         Rx   r 1 
 19.371279 1  51B0C9x         Rx   d 0 
 19.371348 1  930813x         Rx   r 1 
 19.371368 1  ErrorFrame
 19.371392 1  70F             Rx   d 8 2E E2 CF 49 41 CC 0A EE
 19.464271 1  51B0C9x         Rx   d 0 
 19.464311 1  70F             Rx   d 8 2E E2 CF 49 41 CC 0A EE
 19.464334 1  930813x         Rx   r 1 
 19.464350 1  51B0C9x         Rx   d 0 
 19.464363 1  ErrorFrame
 19.715311 1  7               Rx   d 8 2E E2 CF 49 41 CC 0A EE
 19.715370 1  930813x         Rx   r 1 
 19.776398 1  139             Rx   d 4 46 B9 38 5D
 19.985393 1  48C             Rx   r 2 
 19.985436 1  139             Rx   d 4 46 B9 38 5D
 20.028398 1  714             Rx   r 8 
 20.028436 1  48C             Rx   r 2 
 20.206505 1  499             Rx   d 3 3D BA 3E
 20.289202 1  714             Rx   r 8 
 20.289250 1  499             Rx   d 3 3D BA 3E
 20.289276 1  48C             Rx   r 2 
 20.289297 1  ErrorFrame
 20.490236 1  704             Rx   r 8 
 20.490274 1  48C             Rx   r 2 
 20.648310 1  18              Rx   r 8 
 20.779302 1  704             Rx   r 8 
 20.779363 1  18              Rx   r 8 
 20.779386 1  48C             Rx   r 2 
 20.779402 1  704             Rx   r 8 
 20.779416 1  ErrorFrame
 20.779439 1  18              Rx   r 8 
 20.964281 1  48C             Rx   r 2 
 20.964323 1  18              Rx   r 8 
 20.964345 1  704             Rx   r 8 
 20.964363 1  48C             Rx   r 2 
 20.964420 1  18              Rx   r 8 
 21.026322 1  704             Rx   r 8 
 21.026391 1  18              Rx   r 8 
 21.026412 1  ErrorFrame
 21.026442 1  48C             Rx   r 2 
 21.070293 1  494             Rx   r 8 
 21.070331 1  48C             Rx   r 2 
 21.070354 1  18              Rx   r 8 
 21.192252 1  494             Rx   r 8 
 21.192292 1  18              Rx   r 8 
 21.192315 1  48C             Rx   r 2 
 21.331427 1  714             Rx   r 8 
 21.331482 1  48C             Rx   r 2 
 21.531293 1  489             Rx   d 8 3D BA 3E 5D 20 7B 22 EC
 21.531334 1  714             Rx   r 8 
 21.531357 1  48C             Rx   r 2 
 21.782306 1  1               Rx   d 8 3D BA 3E 5D 20 7B 22 EC
 21.782363 1  48C             Rx   r 2 
 21.870308 1  714             Rx   r 8 
 21.870345 1  1               Rx   d 8 3D BA 3E 5D 20 7B 22 EC
 21.870368 1  48C             Rx   r 2 
 21.870398 1  714             Rx   r 8 
 21.870424 1  48C             Rx   r 2 
 22.020315 1  4A41713x        Rx   r 8 
 22.209252 1  494             Rx   r 2 
 22.284449 1  323             Rx   d 0 
 22.505463 1  33B             Rx   d 4 4D CD CF 49
 22.673464 1  48C             Rx   r 2 
 22.845266 1  33B             Rx   d 4 4D CD CF 49
 22.845323 1  48C             Rx   r 2 
 22.845338 1  ErrorFrame
 22.845363 1  1               Rx   d 8 3D BA 3E 5D 20 7B 22 EC
 22.929409 1  18              Rx   r 5 
 23.149286 1  1               Rx   d 8 3D BA 3E 5D 20 7B 22 EC
 23.149341 1  18              Rx   r 5 
 23.149356 1  ErrorFrame
 23.149378 1  48C             Rx   r 2 
 23.340496 1  1C30C5C9x       Rx   r 8 
 23.340585 1  48C             Rx   r 2 
 23.340602 1  ErrorFrame
 23.340626 1  18              Rx   r 5 
 23.414678 1  499             Rx   d 2 3D 42
 23.602438 1  70F             Rx   d 8 F4 F1 CF 49 41 CC 0A EE
 23.694374 1  706             Rx   d 8 3D 42 3F 5D 20 7B 22 EC
 23.791514 1  489             Rx   d 6 72 F1 CF 49 41 CC
 23.990372 1  33B             Rx   d 8 3D 42 3F 5D 20 7B 22 EC
 23.990431 1  489             Rx   d 6 72 F1 CF 49 41 CC
 23.990455 1  48C             Rx   r 2 
 23.990474 1  ErrorFrame
 24.216442 1  10092Cx         Rx   d 8 3D 42 3F 5D 20 7B 22 EC
 24.466542 1  499             Rx   d 5 12 65 A5 63 4F
 24.505304 1  10092Cx         Rx   d 8 3D 42 3F 5D 20 7B 22 EC
 24.505362 1  499             Rx   d 5 12 65 A5 63 4F
 24.505386 1  489             Rx   d 6 72 F1 CF 49 41 CC
 24.505408 1  ErrorFrame
 24.529406 1  484             Rx   r 3 
 24.697315 1  489             Rx   d 6 72 F1 CF 49 41 CC
 24.697368 1  484             Rx   r 3 
 24.697391 1  499             Rx   d 5 12 65 A5 63 4F
 24.697410 1  ErrorFrame
 24.753529 1  499             Rx   d 5 15 61 AE 30 41
 24.995303 1  499             Rx   d 5 12 65 A5 63 4F
 24.995367 1  499             Rx   d 5 15 61 AE 30 41
 24.995390 1  484             Rx   r 3 
 24.995409 1  ErrorFrame
 25.062363 1  499             Rx   d 5 12 65 A5 63 4F
 25.062425 1  484             Rx   r 3 
 25.062440 1  ErrorFrame
 25.062462 1  499             Rx   d 5 15 61 AE 30 41
 25.062479 1  499             Rx   d 5 12 65 A5 63 4F
 25.197295 1  484             Rx   r 3 
 25.197352 1  499             Rx   d 5 15 61 AE 30 41
 25.197375 1  499             Rx   d 5 12 65 A5 63 4F
 25.197391 1  484             Rx   r 3 
 25.197405 1  ErrorFrame
 25.269382 1  70B             Rx   d 5 15 61 AE 30 41
 25.269437 1  499             Rx   d 5 12 65 A5 63 4F
 25.269460 1  484             Rx   r 3 
 25.269479 1  ErrorFrame
 25.393403 1  493             Rx   d 5 15 61 AE 30 41
 25.393457 1  484             Rx   r 3 
 25.393472 1  ErrorFrame
 25.393494 1  499             Rx   d 5 12 65 A5 63 4F
 25.393511 1  493             Rx   d 5 15 61 AE 30 41
 25.506309 1  484             Rx   r 3 
 25.506364 1  499             Rx   d 5 12 65 A5 63 4F
 25.649508 1  121631x         Rx   r 3 
 25.735358 1  494             Rx   r 3 
 25.735413 1  121631x         Rx   r 3 
 25.871273 1  499             Rx   d 5 12 65 A5 63 4F
 25.871317 1  494             Rx   r 3 
 25.871340 1  121631x         Rx   r 3 
 25.871360 1  ErrorFrame
 25.990409 1  491             Rx   d 5 12 65 A5 63 4F
 25.990469 1  121631x         Rx   r 3 
 25.990485 1  ErrorFrame
 25.990508 1  494             Rx   r 3 
 26.154493 1  24              Rx   r 5 
 26.154550 1  494             Rx   r 3 
 26.212441 1  706             Rx   d 1 F7
 26.309510 1  489             Rx   d 8 2D 65 A5 63 4F 1E 9D 6D
 26.423504 1  503BB9x         Rx   r 8 
 26.558321 1  701             Rx   d 8 2D 65 A5 63 4F 1E 9D 6D
 26.558381 1  503BB9x         Rx   r 8 
 26.613441 1  706             Rx   d 8 E4 5F 3F 5D 20 7B 22 EC
 26.640591 1  323             Rx   d 8 DE 41 49 6F 4F 1E 9D 6D
 26.774508 1  33B             Rx   d 0 
 26.799530 1  33B             Rx   d 5 DD 9A 79 6F 4F
 26.972336 1  493             Rx   d 0 
 27.158373 1  33B             Rx   d 5 DD 9A 79 6F 4F
 27.158450 1  493             Rx   d 0 
 27.158467 1  ErrorFrame
 27.158490 1  503BB9x         Rx   r 8 
 27.217529 1  139             Rx   d 8 59 04 79 6F 4F 1E 9D 6D
 27.380571 1  323             Rx   d 8 EA B8 77 5F 41 CC 0A EE
 27.550398 1  139             Rx   d 8 59 04 79 6F 4F 1E 9D 6D
 27.550457 1  323             Rx   d 8 EA B8 77 5F 41 CC 0A EE
 27.550473 1  ErrorFrame
 27.550495 1  493             Rx   d 0 
 27.550512 1  139             Rx   d 8 59 04 79 6F 4F 1E 9D 6D
 27.644335 1  323             Rx   d 8 EA B8 77 5F 41 CC 0A EE
 27.644400 1  493             Rx   d 0 
 27.644424 1  139             Rx   d 8 59 04 79 6F 4F 1E 9D 6D
 27.644444 1  ErrorFrame
 27.869381 1  493             Rx   d 8 EA B8 77 5F 41 CC 0A EE
 27.869442 1  139             Rx   d 8 59 04 79 6F 4F 1E 9D 6D
 27.869465 1  493             Rx   d 0 
 27.869484 1  ErrorFrame
 27.965547 1  1C302FB9x       Rx   d 8 EA B8 77 5F 41 CC 0A EE
 27.965635 1  493             Rx   d 0 
 28.065560 1  CEC3D1Dx        Rx   r 8 
 28.131382 1  1C302FB9x       Rx   d 8 EA B8 77 5F 41 CC 0A EE
 28.131448 1  CEC3D1Dx        Rx   r 8 
 28.131463 1  ErrorFrame
 28.131486 1  493             Rx   d 0 
 28.131503 1  1C302FB9x       Rx   d 8 EA B8 77 5F 41 CC 0A EE
 28.187333 1  CEC3D1Dx        Rx   r 8 
 28.187376 1  493             Rx   d 0 
 28.187399 1  1C302FB9x       Rx   d 8 EA B8 77 5F 41 CC 0A EE
 28.362427 1  122C3D1Dx       Rx   r 8 
 28.362496 1  1C302FB9x       Rx   d 8 EA B8 77 5F 41 CC 0A EE
 28.362511 1  ErrorFrame
 28.362534 1  493             Rx   d 0 
 28.449442 1  18              Rx   r 8 
 28.688365 1  493             Rx   d 0 
 28.791527 1  10              Rx   r 8 
 28.850471 1  484             Rx   d 8 78 87 3F 5D 20 7B 22 EC
 28.881477 1  14              Rx   d 8 88 04 79 6F 4F 1E 9D 6D
 28.881528 1  484             Rx   d 8 78 87 3F 5D 20 7B 22 EC
 28.933412 1  12302FB9x       Rx   d 8 EA B8 77 5F 41 CC 0A EE
 28.933447 1  14              Rx   d 8 88 04 79 6F 4F 1E 9D 6D
 28.933469 1  484             Rx   d 8 78 87 3F 5D 20 7B 22 EC
 28.933486 1  12302FB9x       Rx   d 8 EA B8 77 5F 41 CC 0A EE
 28.933499 1  ErrorFrame
 29.064497 1  CED28C4x        Rx   d 8 88 04 79 6F 4F 1E 9D 6D
 29.119381 1  484             Rx   d 8 78 87 3F 5D 20 7B 22 EC
 29.119457 1  CED28C4x        Rx   d 8 88 04 79 6F 4F 1E 9D 6D
 29.119473 1  ErrorFrame
 29.119496 1  12302FB9x       Rx   d 8 EA B8 77 5F 41 CC 0A EE
 29.332331 1  494             Rx   d 8 78 87 3F 5D 20 7B 22 EC
 29.551384 1  12502FB9x       Rx   d 8 EA B8 77 5F 41 CC 0A EE
 29.551439 1  494             Rx   d 8 78 87 3F 5D 20 7B 22 EC
 29.551461 1  CED28C4x        Rx   d 8 88 04 79 6F 4F 1E 9D 6D
 29.551481 1  ErrorFrame
 29.677530 1  484             Rx   r 4 
 29.757333 1  CED28C4x        Rx   d 8 88 04 79 6F 4F 1E 9D 6D
 29.757391 1  484             Rx   r 4 
 29.757414 1  494             Rx   d 8 78 87 3F 5D 20 7B 22 EC
 29.757434 1  ErrorFrame
 29.973373 1  124D28C4x       Rx   d 8 88 04 79 6F 4F 1E 9D 6D
 30.042590 1  92BA61x         Rx   d 4 78 87 3F 5D
 30.245482 1  1C3028C4x       Rx   d 8 88 04 79 6F 4F 1E 9D 6D
 30.245529 1  92BA61x         Rx   d 4 78 87 3F 5D
 30.245553 1  484             Rx   r 4 
 30.245573 1  1C3028C4x       Rx   d 8 88 04 79 6F 4F 1E 9D 6D
 30.245589 1  ErrorFrame
 30.362421 1  92BA61x         Rx   d 4 78 87 3F 5D
 30.362477 1  484             Rx   r 4 
 30.362492 1  ErrorFrame
 30.362514 1  1C3028C4x       Rx   d 8 88 04 79 6F 4F 1E 9D 6D
 30.362531 1  92BA61x         Rx   d 4 78 87 3F 5D
 30.479581 1  933CA5x         Rx   r 8 
 30.668571 1  499             Rx   d 1 12
 30.907429 1  18              Rx   r 8 
 31.001484 1  4               Rx   d 0 
 31.096545 1  CCE3B33x        Rx   d 6 EA B8 77 5F 41 CC
 31.119582 1  1C30C4CBx       Rx   d 8 E3 04 79 6F 4F 1E 9D 6D
End TriggerBlock
